<Qucs Dataset 0.0.19>
<indep acfrequency 251>
  +1.00000000000000000000e+001
  +1.04712854805089961019e+001
  +1.09647819614318500214e+001
  +1.14815362149688287019e+001
  +1.20226443461741290264e+001
  +1.25892541179416728170e+001
  +1.31825673855640701504e+001
  +1.38038426460288476960e+001
  +1.44543977074592753240e+001
  +1.51356124843620793996e+001
  +1.58489319246111328710e+001
  +1.65958690743756065444e+001
  +1.73780082874937527038e+001
  +1.81970085860998338489e+001
  +1.90546071796324731906e+001
  +1.99526231496887938022e+001
  +2.08929613085403929063e+001
  +2.18776162394955235868e+001
  +2.29086765276777271083e+001
  +2.39883291901949036173e+001
  +2.51188643150958021977e+001
  +2.63026799189538174062e+001
  +2.75422870333816618427e+001
  +2.88403150312660550014e+001
  +3.01995172040201573793e+001
  +3.16227766016837890106e+001
  +3.31131121482591055383e+001
  +3.46736850452531655264e+001
  +3.63078054770101346094e+001
  +3.80189396320561101561e+001
  +3.98107170553497198284e+001
  +4.16869383470335392872e+001
  +4.36515832240165906342e+001
  +4.57088189614874949029e+001
  +4.78630092322638347468e+001
  +5.01187233627272306080e+001
  +5.24807460249772432803e+001
  +5.49540873857624490029e+001
  +5.75439937337156877106e+001
  +6.02559586074357724783e+001
  +6.30957344480193142999e+001
  +6.60693448007595947047e+001
  +6.91830970918936287717e+001
  +7.24435960074989964141e+001
  +7.58577575029183748256e+001
  +7.94328234724281401213e+001
  +8.31763771102670688151e+001
  +8.70963589956080568300e+001
  +9.12010839355909439519e+001
  +9.54992586021435840848e+001
  +9.99999999999999857891e+001
  +1.04712854805089961019e+002
  +1.09647819614318478898e+002
  +1.14815362149688240834e+002
  +1.20226443461741268948e+002
  +1.25892541179416696195e+002
  +1.31825673855640701504e+002
  +1.38038426460288462749e+002
  +1.44543977074592675081e+002
  +1.51356124843620790443e+002
  +1.58489319246111278972e+002
  +1.65958690743756022812e+002
  +1.73780082874937477300e+002
  +1.81970085860998324279e+002
  +1.90546071796324667957e+002
  +1.99526231496887874073e+002
  +2.08929613085403929063e+002
  +2.18776162394955179025e+002
  +2.29086765276777271083e+002
  +2.39883291901948950908e+002
  +2.51188643150958000660e+002
  +2.63026799189538110113e+002
  +2.75422870333816490529e+002
  +2.88403150312660557120e+002
  +3.01995172040201509844e+002
  +3.16227766016837904317e+002
  +3.31131121482590970118e+002
  +3.46736850452531427891e+002
  +3.63078054770101289250e+002
  +3.80189396320561058928e+002
  +3.98107170553497212495e+002
  +4.16869383470335264974e+002
  +4.36515832240165877920e+002
  +4.57088189614874863764e+002
  +4.78630092322638120095e+002
  +5.01187233627272178182e+002
  +5.24807460249772361749e+002
  +5.49540873857624205812e+002
  +5.75439937337156948161e+002
  +6.02559586074357639518e+002
  +6.30957344480193114578e+002
  +6.60693448007595634408e+002
  +6.91830970918936031921e+002
  +7.24435960074990134672e+002
  +7.58577575029183662991e+002
  +7.94328234724281287527e+002
  +8.31763771102670489199e+002
  +8.70963589956079999865e+002
  +9.12010839355909752157e+002
  +9.54992586021435727162e+002
  +9.99999999999999545253e+002
  +1.04712854805089887122e+003
  +1.09647819614318495951e+003
  +1.14815362149688257887e+003
  +1.20226443461741246210e+003
  +1.25892541179416662089e+003
  +1.31825673855640616239e+003
  +1.38038426460288496855e+003
  +1.44543977074592726240e+003
  +1.51356124843620773390e+003
  +1.58489319246111244865e+003
  +1.65958690743755937547e+003
  +1.73780082874937534143e+003
  +1.81970085860998301541e+003
  +1.90546071796324645220e+003
  +1.99526231496887817229e+003
  +2.08929613085403752848e+003
  +2.18776162394955235868e+003
  +2.29086765276777214240e+003
  +2.39883291901948905434e+003
  +2.51188643150957841499e+003
  +2.63026799189538178325e+003
  +2.75422870333816626953e+003
  +2.88403150312660500276e+003
  +3.01995172040201441632e+003
  +3.16227766016837676943e+003
  +3.31131121482591061067e+003
  +3.46736850452531552946e+003
  +3.63078054770101152826e+003
  +3.80189396320560945242e+003
  +3.98107170553496916909e+003
  +4.16869383470335287711e+003
  +4.36515832240165855183e+003
  +4.57088189614874772815e+003
  +4.78630092322638029145e+003
  +5.01187233627271871228e+003
  +5.24807460249772520910e+003
  +5.49540873857624319498e+003
  +5.75439937337156607100e+003
  +6.02559586074357321195e+003
  +6.30957344480193205527e+003
  +6.60693448007595907256e+003
  +6.91830970918936145608e+003
  +7.24435960074989543500e+003
  +7.58577575029183117294e+003
  +7.94328234724281355739e+003
  +8.31763771102670762048e+003
  +8.70963589956080068077e+003
  +9.12010839355909047299e+003
  +9.54992586021435090515e+003
  +9.99999999999999818101e+003
  +1.04712854805089918955e+004
  +1.09647819614318432286e+004
  +1.14815362149688189675e+004
  +1.20226443461741182546e+004
  +1.25892541179416693922e+004
  +1.31825673855640634429e+004
  +1.38038426460288392263e+004
  +1.44543977074592639838e+004
  +1.51356124843620800675e+004
  +1.58489319246111299435e+004
  +1.65958690743755942094e+004
  +1.73780082874937434099e+004
  +1.81970085860998151475e+004
  +1.90546071796324686147e+004
  +1.99526231496887849062e+004
  +2.08929613085403798323e+004
  +2.18776162394955099444e+004
  +2.29086765276777077815e+004
  +2.39883291901948941813e+004
  +2.51188643150957868784e+004
  +2.63026799189537996426e+004
  +2.75422870333816390485e+004
  +2.88403150312660291092e+004
  +3.01995172040201214259e+004
  +3.16227766016837449570e+004
  +3.31131121482591115637e+004
  +3.46736850452531580231e+004
  +3.63078054770101225586e+004
  +3.80189396320561063476e+004
  +3.98107170553496980574e+004
  +4.16869383470335014863e+004
  +4.36515832240165473195e+004
  +4.57088189614874499966e+004
  +4.78630092322637647158e+004
  +5.01187233627272435115e+004
  +5.24807460249772630050e+004
  +5.49540873857624392258e+004
  +5.75439937337156734429e+004
  +6.02559586074357430334e+004
  +6.30957344480192768970e+004
  +6.60693448007595434319e+004
  +6.91830970918935636291e+004
  +7.24435960074989125133e+004
  +7.58577575029182626167e+004
  +7.94328234724281501258e+004
  +8.31763771102670871187e+004
  +8.70963589956080395496e+004
  +9.12010839355909265578e+004
  +9.54992586021435272414e+004
  +9.99999999999999126885e+004
  +1.04712854805089853471e+005
  +1.09647819614318359527e+005
  +1.14815362149688095087e+005
  +1.20226443461741306237e+005
  +1.25892541179416715750e+005
  +1.31825673855640663533e+005
  +1.38038426460288406815e+005
  +1.44543977074592665303e+005
  +1.51356124843620695174e+005
  +1.58489319246111204848e+005
  +1.65958690743755869335e+005
  +1.73780082874937274028e+005
  +1.81970085860998049611e+005
  +1.90546071796324715251e+005
  +1.99526231496887921821e+005
  +2.08929613085403863806e+005
  +2.18776162394955143100e+005
  +2.29086765276777121471e+005
  +2.39883291901948803570e+005
  +2.51188643150957708713e+005
  +2.63026799189537821803e+005
  +2.75422870333816215862e+005
  +2.88403150312660611235e+005
  +3.01995172040201607160e+005
  +3.16227766016837791540e+005
  +3.31131121482590911910e+005
  +3.46736850452531361952e+005
  +3.63078054770100978203e+005
  +3.80189396320560772438e+005
  +3.98107170553496747743e+005
  +4.16869383470334811136e+005
  +4.36515832240165269468e+005
  +4.57088189614875009283e+005
  +4.78630092322638258338e+005
  +5.01187233627272071317e+005
  +5.24807460249772295356e+005
  +5.49540873857624130324e+005
  +5.75439937337156268768e+005
  +6.02559586074357037432e+005
  +6.30957344480192288756e+005
  +6.60693448007595026866e+005
  +6.91830970918936538510e+005
  +7.24435960074989823624e+005
  +7.58577575029183528386e+005
  +7.94328234724281122908e+005
  +8.31763771102670347318e+005
  +8.70963589956079842523e+005
  +9.12010839355908683501e+005
  +9.54992586021434748545e+005
  +9.99999999999998370185e+005
</indep>
<dep argH acfrequency>
  -1.91488648743179001865e-001
  -2.00513158700472871043e-001
  -2.09962970038094470793e-001
  -2.19858125011689581330e-001
  -2.30219610205104591172e-001
  -2.41069401000507027577e-001
  -2.52430508139177667282e-001
  -2.64327026470744630426e-001
  -2.76784185993121822911e-001
  -2.89828405290107449233e-001
  -3.03487347478486990671e-001
  -3.17789978781587489909e-001
  -3.32766629851546480445e-001
  -3.48449059968093000084e-001
  -3.64870524247405736418e-001
  -3.82065844000609555753e-001
  -4.00071480387712063997e-001
  -4.18925611519256613224e-001
  -4.38668213164703391094e-001
  -4.59341143233523818701e-001
  -4.80988230202227973198e-001
  -5.03655365668029819659e-001
  -5.27390601217590626604e-001
  -5.52244249807271714303e-001
  -5.78268991859554049029e-001
  -6.05519986288756140169e-001
  -6.34054986677867860045e-001
  -6.63934462837225125575e-001
  -6.95221727984842385872e-001
  -7.27983071797476677389e-001
  -7.62287899590893158752e-001
  -7.98208877897288782144e-001
  -8.35822086717374901355e-001
  -8.75207178734153212751e-001
  -9.16447545784874417762e-001
  -9.59630492896990650031e-001
  -1.00484742020296180520e+000
  -1.05219401305748294639e+000
  -1.10177044068889906647e+000
  -1.15368156372415331390e+000
  -1.20803715093331698327e+000
  -1.26495210554546511084e+000
  -1.32454670149205067098e+000
  -1.38694682993675777460e+000
  -1.45228425645173819802e+000
  -1.52069688919876266908e+000
  -1.59232905846970629327e+000
  -1.66733180793342761206e+000
  -1.74586319792488686709e+000
  -1.82808862109664804763e+000
  -1.91418113073181817008e+000
  -2.00432178199028676602e+000
  -2.09869998632560728069e+000
  -2.19751387926696439834e+000
  -2.30097070170801787370e+000
  -2.40928719478042818736e+000
  -2.52269000831284451181e+000
  -2.64141612278405535363e+000
  -2.76571328456960507935e+000
  -2.89584045415190294293e+000
  -3.03206826681175911631e+000
  -3.17467950514118557592e+000
  -3.32396958250933050039e+000
  -3.48024703637165755410e+000
  -3.64383403003204087156e+000
  -3.81506686114336979188e+000
  -3.99429647485855499056e+000
  -4.18188897911426593623e+000
  -4.37822615903725065323e+000
  -4.58370598689980912610e+000
  -4.79874312340879249916e+000
  -5.02376940538194105557e+000
  -5.25923431403718311117e+000
  -5.50560541718379692355e+000
  -5.76336877754901966142e+000
  -6.03302931828826505267e+000
  -6.31511113540055113447e+000
  -6.61015774529280264460e+000
  -6.91873225409678127562e+000
  -7.24141743353259048632e+000
  -7.57881568612645040162e+000
  -7.93154888042460459729e+000
  -8.30025803450163124353e+000
  -8.68560282354705570640e+000
  -9.08826088464494219465e+000
  -9.50892688906230176826e+000
  -9.94831134947257744727e+000
  -1.04071391266143269405e+001
  -1.08861475969967269606e+001
  -1.13860844405098458054e+001
  -1.19077050043037377947e+001
  -1.24517691972224753272e+001
  -1.30190378676108302614e+001
  -1.36102686166833066750e+001
  -1.42262110001337820364e+001
  -1.48676010725862806083e+001
  -1.55351552332040583337e+001
  -1.62295633366834657352e+001
  -1.69514810423857760213e+001
  -1.77015213859427404941e+001
  -1.84802455727376937489e+001
  -1.92881530115981014717e+001
  -2.01256706301416876670e+001
  -2.09931415406640979882e+001
  -2.18908131572178774604e+001
  -2.28188249003242553670e+001
  -2.37771956649664559791e+001
  -2.47658112691214533641e+001
  -2.57844121426311900791e+001
  -2.68325815577431505687e+001
  -2.79097347407280267362e+001
  -2.90151092357444113645e+001
  -3.01477569143768988624e+001
  -3.13065380336964231844e+001
  -3.24901177390581423765e+001
  -3.36969653823583641383e+001
  -3.49253569800898659992e+001
  -3.61733810673640334699e+001
  -3.74389481146728542171e+001
  -3.87198035658039501072e+001
  -4.00135444320533935070e+001
  -4.13176392454777996477e+001
  -4.26294510395774892686e+001
  -4.39462628976280171855e+001
  -4.52653054952543953959e+001
  -4.65837859726456144926e+001
  -4.78989174096247438683e+001
  -4.92079481482419822669e+001
  -5.05081902147996260055e+001
  -5.17970461356986362489e+001
  -5.30720335160288527732e+001
  -5.43308068509224639797e+001
  -5.55711761601582665548e+001
  -5.67911221681722580001e+001
  -5.79888078861333937652e+001
  -5.91625865822670391481e+001
  -6.03110062444822645489e+001
  -6.14328107404776986300e+001
  -6.25269379615325888722e+001
  -6.35925152955750405681e+001
  -6.46288528129223323049e+001
  -6.56354345656989295321e+001
  -6.66119084017467741887e+001
  -6.75580746788578210271e+001
  -6.84738742386817165197e+001
  -6.93593759649914431975e+001
  -7.02147642112008156801e+001
  -7.10403263398254836147e+001
  -7.18364405742031806312e+001
  -7.26035643219980357799e+001
  -7.33422230920815820809e+001
  -7.40530000921577311601e+001
  -7.47365265644566107994e+001
  -7.53934728911290648057e+001
  -7.60245404795762595995e+001
  -7.66304544206115565430e+001
  -7.72119568987364601753e+001
  -7.77698013235119418596e+001
  -7.83047471435843647214e+001
  -7.88175552999479691607e+001
  -7.93089842720766000639e+001
  -7.97797866692533972355e+001
  -8.02307063194220972946e+001
  -8.06624758088820215107e+001
  -8.10758144278865842125e+001
  -8.14714264794718161511e+001
  -8.18499999114576155534e+001
  -8.22122052343839015975e+001
  -8.25586946910594718929e+001
  -8.28901016463199198370e+001
  -8.32070401684490690286e+001
  -8.35101047764696744480e+001
  -8.37998703301187219949e+001
  -8.40768920417682465995e+001
  -8.43417055918274769510e+001
  -8.45948273312532705859e+001
  -8.48367545567124068384e+001
  -8.50679658456784579812e+001
  -8.52889214403205357939e+001
  -8.55000636704570950997e+001
  -8.57018174071153282512e+001
  -8.58945905393694175700e+001
  -8.60787744681371549405e+001
  -8.62547446115064531114e+001
  -8.64228609169496024833e+001
  -8.65834683764786490201e+001
  -8.67368975414041472050e+001
  -8.68834650338928327074e+001
  -8.70234740529873249670e+001
  -8.71572148731544729117e+001
  -8.72849653337867152914e+001
  -8.74069913183812730040e+001
  -8.75235472223908459455e+001
  -8.76348764089630236640e+001
  -8.77412116519863047870e+001
  -8.78427755660209186317e+001
  -8.79397810228431779933e+001
  -8.80324315544453099847e+001
  -8.81209217424401742846e+001
  -8.82054375939050032684e+001
  -8.82861569037672353488e+001
  -8.83632496038983106246e+001
  -8.84368780991276537407e+001
  -8.85071975904283618775e+001
  -8.85743563855591844458e+001
  -8.86384961974720368971e+001
  -8.86997524308073650445e+001
  -8.87582544568253837269e+001
  -8.88141258771173767173e+001
  -8.88674847764569193487e+001
  -8.89184439651491658196e+001
  -8.89671112112380626513e+001
  -8.90135894629304686987e+001
  -8.90579770615901225028e+001
  -8.91003679456530477410e+001
  -8.91408518458055425526e+001
  -8.91795144717626158126e+001
  -8.92164376909762921741e+001
  -8.92516996995923221903e+001
  -8.92853751859644262368e+001
  -8.93175354870356699166e+001
  -8.93482487378708043479e+001
  -8.93775800146268437629e+001
  -8.94055914712390489285e+001
  -8.94323424700773017548e+001
  -8.94578897068381024837e+001
  -8.94822873299100223221e+001
  -8.95055870544507996556e+001
  -8.95278382714045619650e+001
  -8.95490881516756758174e+001
  -8.95693817456731693483e+001
  -8.95887620784153142495e+001
  -8.96072702404078711425e+001
  -8.96249454744566804720e+001
  -8.96418252586172314977e+001
  -8.96579453854260037815e+001
  -8.96733400376025429068e+001
  -8.96880418603552129753e+001
  -8.97020820304603745399e+001
  -8.97154903222405692986e+001
  -8.97282951705926166142e+001
  -8.97405237311891141871e+001
  -8.97522019379803026595e+001
  -8.97633545581162053395e+001
  -8.97740052444138001420e+001
  -8.97841765854519735512e+001
  -8.97938901534429447793e+001
  -8.98031665499256206431e+001
  -8.98120254494309051552e+001
  -8.98204856411765035773e+001
  -8.98285650688791434959e+001
</dep>
<dep H acfrequency>
  +1.11696402910348387870e-005+j3.34208251396799112254e-003
  +1.22472538399138083492e-005+j3.49958623906986877883e-003
  +1.34288309306843198655e-005+j3.66451232733417840357e-003
  +1.47244012384106200207e-005+j3.83721050118686997019e-003
  +1.61449619739116069506e-005+j4.01804695270158163112e-003
  +1.77025712077784012357e-005+j4.20740511797367076202e-003
  +1.94104501936576710806e-005+j4.40568648772026762173e-003
  +2.12830955581303911633e-005+j4.61331145577380859896e-003
  +2.33364023080112335568e-005+j4.83072020720912327640e-003
  +2.55877986974081045779e-005+j5.05837364791945041931e-003
  +2.80563940971803422943e-005+j5.29675437753447317379e-003
  +3.07631411193563298646e-005+j5.54636770765379403386e-003
  +3.37310133695346048050e-005+j5.80774272745200690476e-003
  +3.69852003323006470453e-005+j6.08143341879667596178e-003
  +4.05533210393425468283e-005+j6.36801982310790468805e-003
  +4.44656583284448064276e-005+j6.66810926227774311559e-003
  +4.87554156751921326457e-005+j6.98233761605914285409e-003
  +5.34589987694600627549e-005+j7.31137065842723046782e-003
  +5.86163242171768104211e-005+j7.65590545551028071186e-003
  +6.42711579761199056993e-005+j8.01667182778316791958e-003
  +7.04714863845361998238e-005+j8.39443387931210899255e-003
  +7.72699229151844292152e-005+j8.78999159693552231665e-003
  +8.47241540872215764032e-005+j9.20418252236100513375e-003
  +9.28974282966178320671e-005+j9.63788350025220584560e-003
  +1.01859091685134421222e-004+j1.00920125054706263240e-002
  +1.11685175561216618349e-004+j1.05675305527250067150e-002
  +1.22459040316572265921e-004+j1.10654436919636004616e-002
  +1.34272081253142511019e-004+j1.15868050929209317340e-002
  +1.47224502250316828392e-004+j1.21327172222983094285e-002
  +1.61426163765635650917e-004+j1.27043341171148189972e-002
  +1.76997512278201656229e-004+j1.33028637578097817806e-002
  +1.94070598957320688627e-004+j1.39295705447060012838e-002
  +2.12790196074611842559e-004+j1.45857778814524104843e-002
  +2.33315020481470196314e-004+j1.52728708690503863638e-002
  +2.55819074351284038785e-004+j1.59922991140261649967e-002
  +2.80493114343585367172e-004+j1.67455796542368522128e-002
  +3.07546261392203684921e-004+j1.75343000056833557554e-002
  +3.37207764458844654661e-004+j1.83601213335433423313e-002
  +3.69728932835160456569e-004+j1.92247817504226821417e-002
  +4.05385252928665664515e-004+j2.01300997445460656821e-002
  +4.44478706939594695336e-004+j2.10779777402546851517e-002
  +4.87340312436348283790e-004+j2.20704057927402566563e-002
  +5.34332903576287569433e-004+j2.31094654184047128276e-002
  +5.85854176606528682242e-004+j2.41973335615782540742e-002
  +6.42340024326598277825e-004+j2.53362866975361325506e-002
  +7.04268186412173430831e-004+j2.65287050708054965298e-002
  +7.72162244897572555558e-004+j2.77770770666232492963e-002
  +8.46595996705145725607e-004+j2.90840037120666840276e-002
  +9.28198237902921950530e-004+j3.04522033017986387682e-002
  +1.01765799737801323176e-003+j3.18845161415127267834e-002
  +1.11573026084161642559e-003+j3.33839093999887745468e-002
  +1.22324222954018550606e-003+j3.49534820581305569198e-002
  +1.34110016174244931278e-003+j3.65964699404003127037e-002
  +1.47029684900736967550e-003+j3.83162508106308433153e-002
  +1.61191978341394663056e-003+j4.01163495102157263705e-002
  +1.76716007634622083652e-003+j4.20004431120766727470e-002
  +1.93732219406602540479e-003+j4.39723660584963801923e-002
  +2.12383458015544691194e-003+j4.60361152447899615869e-002
  +2.32826123994474493487e-003+j4.81958550037585239934e-002
  +2.55231436722295080416e-003+j5.04559219378044668258e-002
  +2.79786809880683924254e-003+j5.28208295363535376699e-002
  +3.06697348785223491974e-003+j5.52952725056767083189e-002
