<Qucs Dataset 0.0.19>
<indep time 11>
  +0.00000000000000000000e+000
  +1.99999999999999982479e-005
  +3.99999999999999964959e-005
  +5.99999999999999947438e-005
  +7.99999999999999929917e-005
  +9.99999999999999912396e-005
  +1.19999999999999989488e-004
  +1.39999999999999987736e-004
  +1.59999999999999985983e-004
  +1.79999999999999984231e-004
  +1.99999999999999982479e-004
</indep>
<dep Pr1.Vt time>
  +0.00000000000000000000e+000
  +5.00000000000000000000e+000
  +5.00000000000000000000e+000
  +5.00000000000000000000e+000
  +5.00000000000000000000e+000
  +5.00000000000001154632e+000
  +0.00000000000000000000e+000
  +0.00000000000000000000e+000
  +0.00000000000000000000e+000
  +0.00000000000000000000e+000
  +0.00000000000000000000e+000
</dep>
<dep Pr2.Vt time>
  +0.00000000000000000000e+000
  +3.35159320132236882017e+000
  +2.24661127559358764216e+000
  +1.50592924631570568295e+000
  +1.00944160636325253044e+000
  +6.76640259926010290137e-001
  -2.89803222812758010107e+000
  -1.94258416509981657327e+000
  -1.30213639512721734981e+000
  -8.72836926181668415481e-001
  -5.85072579613928667186e-001
</dep>
<dep Arduinopin9.It time>
  +0.00000000000000000000e+000
  -1.64840679867763080513e-002
  -2.75338872440641230233e-002
  -3.49407075368429395623e-002
  -3.99055839363674780262e-002
  -4.32335974007400161701e-002
  -2.89803222812758005944e-002
  -1.94258416509981678144e-002
  -1.30213639512721749553e-002
  -8.72836926181668436298e-003
  -5.85072579613928663717e-003
</dep>
<dep _net0.Vt time>
  +0.00000000000000000000e+000
  +3.35159320132236882017e+000
  +2.24661127559358764216e+000
  +1.50592924631570568295e+000
  +1.00944160636325253044e+000
  +6.76640259926010290137e-001
  -2.89803222812758010107e+000
  -1.94258416509981657327e+000
  -1.30213639512721734981e+000
  -8.72836926181668415481e-001
  -5.85072579613928667186e-001
</dep>
<dep _net1.Vt time>
  +0.00000000000000000000e+000
  +5.00000000000000000000e+000
  +5.00000000000000000000e+000
  +5.00000000000000000000e+000
  +5.00000000000000000000e+000
  +5.00000000000001154632e+000
  +0.00000000000000000000e+000
  +0.00000000000000000000e+000
  +0.00000000000000000000e+000
  +0.00000000000000000000e+000
  +0.00000000000000000000e+000
</dep>
