<Qucs Dataset 0.0.19>
<indep acfrequency 201>
  +1.00000000000000000000e+001
  +1.04712854805089961019e+001
  +1.09647819614318500214e+001
  +1.14815362149688287019e+001
  +1.20226443461741290264e+001
  +1.25892541179416728170e+001
  +1.31825673855640719268e+001
  +1.38038426460288476960e+001
  +1.44543977074592753240e+001
  +1.51356124843620811760e+001
  +1.58489319246111364237e+001
  +1.65958690743756065444e+001
  +1.73780082874937562565e+001
  +1.81970085860998374017e+001
  +1.90546071796324731906e+001
  +1.99526231496887973549e+001
  +2.08929613085403964590e+001
  +2.18776162394955235868e+001
  +2.29086765276777306610e+001
  +2.39883291901949036173e+001
  +2.51188643150958021977e+001
  +2.63026799189538209589e+001
  +2.75422870333816618427e+001
  +2.88403150312660585541e+001
  +3.01995172040201644847e+001
  +3.16227766016837961160e+001
  +3.31131121482591197491e+001
  +3.46736850452531726319e+001
  +3.63078054770101346094e+001
  +3.80189396320561172615e+001
  +3.98107170553497269339e+001
  +4.16869383470335463926e+001
  +4.36515832240166048450e+001
  +4.57088189614875091138e+001
  +4.78630092322638418523e+001
  +5.01187233627272377134e+001
  +5.24807460249772717020e+001
  +5.49540873857624561083e+001
  +5.75439937337156948161e+001
  +6.02559586074357795837e+001
  +6.30957344480193356162e+001
  +6.60693448007596089155e+001
  +6.91830970918936714043e+001
  +7.24435960074990248359e+001
  +7.58577575029183748256e+001
  +7.94328234724281685430e+001
  +8.31763771102671114477e+001
  +8.70963589956080852517e+001
  +9.12010839355909865844e+001
  +9.54992586021435840848e+001
  +1.00000000000000014211e+002
  +1.04712854805089961019e+002
  +1.09647819614318535741e+002
  +1.14815362149688283466e+002
  +1.20226443461741325791e+002
  +1.25892541179416753039e+002
  +1.31825673855640701504e+002
  +1.38038426460288519593e+002
  +1.44543977074592760346e+002
  +1.51356124843620875708e+002
  +1.58489319246111364237e+002
  +1.65958690743756136499e+002
  +1.73780082874937562565e+002
  +1.81970085860998409544e+002
  +1.90546071796324781644e+002
  +1.99526231496887987760e+002
  +2.08929613085404014328e+002
  +2.18776162394955264290e+002
  +2.29086765276777384770e+002
  +2.39883291901949064595e+002
  +2.51188643150958085926e+002
  +2.63026799189538223800e+002
  +2.75422870333816774746e+002
  +2.88403150312660670807e+002
  +3.01995172040201623531e+002
  +3.16227766016838018004e+002
  +3.31131121482591140648e+002
  +3.46736850452531825795e+002
  +3.63078054770101402937e+002
  +3.80189396320561399989e+002
  +3.98107170553497326182e+002
  +4.16869383470335492348e+002
  +4.36515832240166105294e+002
  +4.57088189614875091138e+002
  +4.78630092322638574842e+002
  +5.01187233627272348713e+002
  +5.24807460249772816496e+002
  +5.49540873857624660559e+002
  +5.75439937337156948161e+002
  +6.02559586074357639518e+002
  +6.30957344480193683012e+002
  +6.60693448007596202842e+002
  +6.91830970918936600356e+002
  +7.24435960074990134672e+002
  +7.58577575029184345112e+002
  +7.94328234724281969648e+002
  +8.31763771102671285007e+002
  +8.70963589956080681986e+002
  +9.12010839355909752157e+002
  +9.54992586021436522969e+002
  +1.00000000000000045475e+003
  +1.04712854805089978072e+003
  +1.09647819614318495951e+003
  +1.14815362149688348836e+003
  +1.20226443461741359897e+003
  +1.25892541179416775776e+003
  +1.31825673855640729926e+003
  +1.38038426460288496855e+003
  +1.44543977074592839926e+003
  +1.51356124843620909814e+003
  +1.58489319246111381290e+003
  +1.65958690743756073971e+003
  +1.73780082874937534143e+003
  +1.81970085860998460703e+003
  +1.90546071796324804382e+003
  +1.99526231496888021866e+003
  +2.08929613085403980222e+003
  +2.18776162394955417767e+003
  +2.29086765276777441613e+003
  +2.39883291901949132807e+003
  +2.51188643150958068873e+003
  +2.63026799189538178325e+003
  +2.75422870333816808852e+003
  +2.88403150312660727650e+003
  +3.01995172040201669006e+003
  +3.16227766016837949792e+003
  +3.31131121482591379390e+003
  +3.46736850452531825795e+003
  +3.63078054770101516624e+003
  +3.80189396320561263565e+003
  +3.98107170553497280707e+003
  +4.16869383470335742459e+003
  +4.36515832240166218980e+003
  +4.57088189614875227562e+003
  +4.78630092322638392943e+003
  +5.01187233627272689773e+003
  +5.24807460249772884708e+003
  +5.49540873857624774246e+003
  +5.75439937337157061847e+003
  +6.02559586074357775942e+003
  +6.30957344480193751224e+003
  +6.60693448007596452953e+003
  +6.91830970918936691305e+003
  +7.24435960074990271096e+003
  +7.58577575029184481537e+003
  +7.94328234724282083334e+003
  +8.31763771102671307744e+003
  +8.70963589956080977572e+003
  +9.12010839355909774895e+003
  +9.54992586021436727606e+003
  +1.00000000000000072760e+004
  +1.04712854805089991714e+004
  +1.09647819614318541426e+004
  +1.14815362149688280624e+004
  +1.20226443461741382635e+004
  +1.25892541179416803061e+004
  +1.31825673855640743568e+004
  +1.38038426460288519593e+004
  +1.44543977074592876306e+004
  +1.51356124843620928004e+004
  +1.58489319246111426764e+004
  +1.65958690743756123993e+004
  +1.73780082874937579618e+004
  +1.81970085860998515273e+004
  +1.90546071796324831666e+004
  +1.99526231496888030961e+004
  +2.08929613085403980222e+004
  +2.18776162394955463242e+004
  +2.29086765276777477993e+004
  +2.39883291901949196472e+004
  +2.51188643150958123442e+004
  +2.63026799189538214705e+004
  +2.75422870333816899802e+004
  +2.88403150312660764030e+004
  +3.01995172040201759955e+004
  +3.16227766016838031646e+004
  +3.31131121482591115637e+004
  +3.46736850452531580231e+004
  +3.63078054770101225586e+004
  +3.80189396320561718312e+004
  +3.98107170553497708170e+004
  +4.16869383470335815218e+004
  +4.36515832240166346310e+004
  +4.57088189614875300322e+004
  +4.78630092322638520272e+004
  +5.01187233627272435115e+004
  +5.24807460249772630050e+004
  +5.49540873857624392258e+004
  +5.75439937337157680304e+004
  +6.02559586074358521728e+004
  +6.30957344480193860363e+004
  +6.60693448007596598472e+004
  +6.91830970918936945964e+004
  +7.24435960074990289286e+004
  +7.58577575029183935840e+004
  +7.94328234724281501258e+004
  +8.31763771102670871187e+004
  +8.70963589956081850687e+004
  +9.12010839355910866288e+004
  +9.54992586021436873125e+004
  +1.00000000000000087311e+005
</indep>
<dep H acfrequency>
  +3.94787137296000951419e-007+j6.28320763176832414176e-004
  +4.32875801424469131485e-007+j6.57932833990681488999e-004
  +4.74639254523652775679e-007+j6.88940512120771435950e-004
  +5.20432046420683696903e-007+j7.21409575464013901915e-004
  +5.70642935862726971239e-007+j7.55408902667533224164e-004
  +6.25698191456215227851e-007+j7.91010619371186694121e-004
  +6.86065211180805105675e-007+j8.28290251358381672368e-004
  +7.52256491235020637461e-007+j8.67326884943152255289e-004
  +8.24833977942275272779e-007+j9.08203334937272800317e-004
  +9.04413839705248723875e-007+j9.51006320557784318344e-004
  +9.91671699571413410034e-007+j9.95826649652766481002e-004
  +1.08734837289347245792e-006+j1.04275941164152933030e-003
  +1.19225615886924405329e-006+j1.09190417958468120527e-003
  +1.30728573946307778612e-006+j1.14336522181981438927e-003
  +1.43341374438578771827e-006+j1.19725172361990150026e-003
  +1.57171104648688742135e-006+j1.25367801935396226687e-003
  +1.72335185814059809877e-006+j1.31276383565322651500e-003
  +1.88962370603946845233e-006+j1.37463454611097199431e-003
  +2.07193836930557366980e-006+j1.43942143807050735964e-003
  +2.27184387405415686852e-006+j1.50726199208351578987e-003
  +2.49103764656967320766e-006+j1.57830017465028396399e-003
  +2.73138093715799748073e-006+j1.65268674488427296833e-003
  +2.99491463760753391269e-006+j1.73057957577623321675e-003
  +3.28387662712113337604e-006+j1.81214399076768490834e-003
  +3.60072079467467014667e-006+j1.89755311638025803492e-003
  +3.94813790013227625906e-006+j1.98698825168630490573e-003
  +4.32907845222904697982e-006+j2.08063925544742190851e-003
  +4.74677779885987497714e-006+j2.17870495179140833200e-003
  +5.20478364414154437401e-006+j2.28139355534479450552e-003
  +5.70698622761472470203e-006+j2.38892311678775507572e-003
  +6.25765142391039175392e-006+j2.50152198985118846830e-003
  +6.86145704642870932536e-006+j2.61942932083228949627e-003
  +7.52353266629642994037e-006+j2.74289556176545833849e-003
  +8.24950328833418374875e-006+j2.87218300845013679856e-003
  +9.04553725925787557654e-006+j3.00756636460670087954e-003
  +9.91839882016851396467e-006+j3.14933333350621335114e-003
  +1.08755057558956730866e-005+j3.29778523850026133307e-003
  +1.19249926383324840879e-005+j3.45323767396382100975e-003
  +1.30757802099574935796e-005+j3.61602118825780569078e-003
  +1.43376515077510212581e-005+j3.78648200041942131072e-003
  +1.57213353872040564614e-005+j3.96498275239851385998e-003
  +1.72385981716686815179e-005+j4.15190329877777354606e-003
  +1.89023442245609473258e-005+j4.34764153604500457051e-003
  +2.07267263216253324362e-005+j4.55261427362799089152e-003
  +2.27272667884176764782e-005+j4.76725814905821967254e-003
  +2.49209904652689875502e-005+j4.99203058980042871373e-003
  +2.73265706692775113193e-005+j5.22741082447256751736e-003
  +2.99644894414887550814e-005+j5.47390094638743572586e-003
  +3.28572134986520331536e-005+j5.73202703257522441782e-003
  +3.60293874542482473193e-005+j6.00234032169852209371e-003
  +3.95080460345104475658e-005+j6.28541845455089700362e-003
  +4.33228471937734300762e-005+j6.58186678114077664686e-003
  +4.75063282318077229299e-005+j6.89231973870812683614e-003
  +5.20941872362215015841e-005+j7.21744230540692990883e-003
  +5.71255924183002334747e-005+j7.55793153481765147411e-003
  +6.26435221839257008270e-005+j7.91451817693623708994e-003
  +6.86951390860721463781e-005+j8.28796839182788409872e-003
  +7.53322011459299799080e-005+j8.67908556274222392490e-003
  +8.26115144107026592047e-005+j9.08871221617174075702e-003
  +9.05954310430342557667e-005+j9.51773205710837282012e-003
  +9.93523977161653602591e-005+j9.96707212862600958059e-003
  +1.08957559627637627251e-004+j1.04377051059051095816e-002
  +1.19493426051172073766e-004+j1.09306517359351734742e-002
  +1.31050604031193864774e-004+j1.14469834354023990153e-002
  +1.43728607598938640851e-004+j1.19878250607145710876e-002
  +1.57636750766781161097e-004+j1.25543578657607516474e-002
  +1.72895133554302956073e-004+j1.31478226648786295644e-002
  +1.89635731434479427133e-004+j1.37695232206435803218e-002
  +2.08003599883392506454e-004+j1.44208298785412497578e-002
  +2.28158207198302304727e-004+j1.51031834733870058696e-002
  +2.50274910447918915671e-004+j1.58180995355674501590e-002
  +2.74546591372302713815e-004+j1.65671728288645722649e-002
  +3.01185471302248405304e-004+j1.73520822558598103447e-002
  +3.30425126772032943211e-004+j1.81745961717896392651e-002
  +3.62522730518468954894e-004+j1.90365781533427501360e-002
  +3.97761546069379983218e-004+j1.99399932753711942035e-002
  +4.36453708217761078385e-004+j2.08869149559800723615e-002
  +4.78943326464940054288e-004+j2.18795324391307492717e-002
  +5.25609954131465040988e-004+j2.29201589939420566355e-002
  +5.76872472441749325339e-004+j2.40112409215410653462e-002
  +6.33193446686894172680e-004+j2.51553674738805403688e-002
  +6.95084020803354699948e-004+j2.63552818047422636460e-002
  +7.63109427671986679728e-004+j2.76138930915831720680e-002
  +8.37895205510386120208e-004+j2.89342899884370563512e-002
  +9.20134226355265446781e-004+j3.03197555953334668688e-002
  +1.01059466137344805374e-003+j3.17737841593325465173e-002
  +1.11012903029923302133e-003+j3.33000997571376647355e-002
  +1.21968450954508447065e-003+j3.49026772503523013969e-002
  +1.34031470656525834341e-003+j3.65857658530284596266e-002
  +1.47319314824319856118e-003+j3.83539157087143811609e-002
  +1.61962878016070721370e-003+j4.02120079425932475115e-002
  +1.78108383379382449394e-003+j4.21652887357696487536e-002
  +1.95919449277658390060e-003+j4.42194080660976013286e-002
  +2.15579488097676760447e-003+j4.63804638765927187971e-002
  +2.37294500886905956882e-003+j4.86550525727179050683e-002
  +2.61296345656205925706e-003+j5.10503269189995570465e-002
  +2.87846574963279873416e-003+j5.35740626101940259352e-002
  +3.17240960784582332055e-003+j5.62347350409501886559e-002
  +3.49814853031085075744e-003+j5.90416081011580703986e-002
  +3.85949554144793564522e-003+j6.20048371952824223241e-002
  +4.26079938399293728368e-003+j6.51355891399034020450e-002
  +4.70703604001706903126e-003+j6.84461821560198441228e-002
  +5.20391923158310815145e-003+j7.19502498690189895569e-002
  +5.75803455783060677553e-003+j7.56629340949809825467e-002
  +6.37700324543757478962e-003+j7.96011122726639624991e-002
  +7.06968323592087072998e-003+j8.37836667547118690846e-002
  +7.84641766159779527334e-003+j8.82318048748724215180e-002
  +8.71934389127796208308e-003+j9.29694408576473840800e-002
  +9.70278056838978254783e-003+j9.80236533579087743195e-002
  +1.08137158656939243173e-002+j1.03425235870506782021e-001
  +1.20724281913857488940e-002+j1.09209361636031843101e-001
  +1.35032817541373018760e-002+j1.15416390239886132441e-001
  +1.51357551438890854112e-002+j1.22092850159676913346e-001
  +1.70057835358401396308e-002+j1.29292640402198788507e-001
  +1.91575275097105000854e-002+j1.37078505424538338309e-001
  +2.16457287777346400748e-002+j1.45523850977822166719e-001
  +2.45388831186316401511e-002+j1.54714984193263516143e-001
  +2.79235658575217073063e-002+j1.64753878034243433914e-001
  +3.19104051404092634026e-002+j1.75761574822781457828e-001
  +3.66424453443359929294e-002+j1.87882347610208833011e-001
  +4.23070306325125308766e-002+j2.01288712528974594873e-001
  +4.91529561699362640970e-002+j2.16187287021444879409e-001
  +5.75156323795329299520e-002+j2.32825222885140487028e-001
  +6.78546401845940283515e-002+j2.51496298163637610479e-001
  +8.08107474295957639576e-002+j2.72544254258764107046e-001
  +9.72938903921825304355e-002+j2.96357536237121022005e-001
  +1.18620770020322036098e-001+j3.23341743268802050970e-001
  +1.46731435663896486732e-001+j3.53837987576105628129e-001
  +1.84526921271338018027e-001+j3.87913310673221711777e-001
  +2.36370258451867459870e-001+j4.24852161782501513976e-001
  +3.08714030147717366503e-001+j4.61962853201068113229e-001
  +4.10403469466565196111e-001+j4.91906964492648035581e-001
  +5.50665141430992766125e-001+j4.97426420130432478395e-001
  +7.28835145461779854159e-001+j4.44560992667469678796e-001
  +9.08217214429427488476e-001+j2.88719077726912243254e-001
  +9.99297907249526273787e-001+j2.64877295411193314223e-002
  +9.34462711065259021836e-001-j2.47471518954859193151e-001
  +7.63393271962046426893e-001-j4.24998805039646487813e-001
  +5.80666218745552686897e-001-j4.93450059431848331304e-001
  +4.32846116279891501843e-001-j4.95469833492722500079e-001
  +3.24746622290983499859e-001-j4.68280101650263180790e-001
  +2.47782969944833508791e-001-j4.31725109010526797437e-001
  +1.92759654882138753429e-001-j3.94465930508399564847e-001
  +1.52784735702748974973e-001-j3.59779877479258325401e-001
  +1.23162430773368899994e-001-j3.28623563396424789307e-001
  +1.00768065368443307528e-001-j3.01021365305428834080e-001
  +8.35161383777993093780e-002-j2.76660790514773879956e-001
  +6.99955347484288586957e-002-j2.55139490992104867040e-001
  +5.92343759319273674424e-002-j2.36062840446950639173e-001
  +5.05506060664000222982e-002-j2.19078164801332186951e-001
  +4.34566323233772297541e-002-j2.03882695269824304463e-001
  +3.75976958763775820360e-002-j1.90221211070598028581e-001
  +3.27114027021097389381e-002-j1.77880203607287762368e-001
  +2.86006915903574444882e-002-j1.66681408774076250667e-001
  +2.51154663392185104054e-002-j1.56475811836149586442e-001
  +2.21399065737814954025e-002-j1.47138475969699117352e-001
  +1.95835621237914168924e-002-j1.38564231381460845061e-001
  +1.73750090735266086994e-002-j1.30664142492198209755e-001
  +1.54572670748474565866e-002-j1.23362636034677425334e-001
  +1.37844454110556974974e-002-j1.16595173466852067290e-001
  +1.23192581941559808206e-002-j1.10306364601965287142e-001
  +1.10311623471197259305e-002-j1.04448436103137573538e-001
  +9.89494731422483307648e-003-j9.89799845012795942445e-002
  +8.88965619154069575103e-003-j9.38649572755290706461e-002
  +7.99775263326775454065e-003-j8.90718170134909281721e-002
  +7.20447186680856291319e-003-j8.45728529253266247956e-002
  +6.49731093417088394204e-003-j8.03436113502224158456e-002
  +5.86562516089451924106e-003-j7.63624227114776676917e-002
  +5.30030635793485478680e-003-j7.26100069580418866488e-002
  +4.79352440985549282243e-003-j6.90691431363355812234e-002
  +4.33851839003769786107e-003-j6.57243915773817050097e-002
  +3.92942664883822075084e-003-j6.25618594276866196724e-002
  +3.56114777619506587061e-003-j5.95690020288334731724e-002
  +3.22922617946382007822e-003-j5.67344540622863949264e-002
  +2.92975740564586830533e-003-j5.40478855015617751234e-002
  +2.65930939291525230903e-003-j5.14998783150795863550e-002
  +2.41485664477802128638e-003-j4.90818205872927335043e-002
  +2.19372494336376793952e-003-j4.67858153101624527070e-002
  +1.99354470174761995438e-003-j4.46046015705751364155e-002
  +1.81221143243851228605e-003-j4.25314862444595431779e-002
  +1.64785210524925418776e-003-j4.05602846228731439560e-002
  +1.49879640141661538144e-003-j3.86852686531154385530e-002
  +1.36355205619108701964e-003-j3.69011216900129515595e-002
  +1.24078362988415727940e-003-j3.52028988276245347055e-002
  +1.12929416572992488005e-003-j3.35859920266943015599e-002
  +1.02800928817065929423e-003-j3.20460993737786137281e-002
  +9.35963372164060796246e-004-j3.05791979085460671750e-002
  +8.52287476599119186126e-004-j2.91815195398791998871e-002
  +7.76198785835158200884e-004-j2.78495296419890396578e-002
  +7.06991345047654532428e-004-j2.65799079811364705184e-002
  +6.44027909288141884453e-004-j2.53695316736474232866e-002
  +5.86732754378749862649e-004-j2.42154599182771886057e-002
  +5.34585321103906666723e-004-j2.31149202818951328420e-002
  +4.87114583541813691431e-004-j2.20652963479830606375e-002
  +4.43894048524196558388e-004-j2.10641165634327387490e-002
  +4.04537306709649654730e-004-j2.01090441413093977407e-002
  +3.68694067075644223846e-004-j1.91978678962156472376e-002
  +3.36046616158968954133e-004-j1.83284939051395340259e-002
  +3.06306651414343369608e-004-j1.74989379006167886099e-002
  +2.79212444868998446723e-004-j1.67073183150267638719e-002
  +2.54526299033895988567e-004-j1.59518499051676185263e-002
</dep>
<dep argH acfrequency>
  -3.60001373853993528185e-002
  -3.76967854694322535014e-002
  -3.94733961705180866342e-002
  -4.13337383153481383036e-002
  -4.32817583950794934622e-002
  -4.53215889450905989877e-002
  -4.74575573206534109816e-002
  -4.96941948873276598264e-002
  -5.20362466457914008000e-002
  -5.44886813117754498226e-002
  -5.70567018727723834770e-002
  -5.97457566442449808375e-002
  -6.25615508491677296821e-002
  -6.55100587459015587521e-002
  -6.85975363306304541933e-002
  -7.18305346418813273068e-002
  -7.52159136960117852277e-002
  -7.87608570839870153479e-002
  -8.24728872612828373123e-002
  -8.63598815643512318641e-002
  -9.04300889887759001828e-002
  -9.46921477660307014945e-002
  -9.91551037776454563533e-002
  -1.03828429847584544077e-001
  -1.08722045955765275749e-001
  -1.13846340417895472430e-001
  -1.19212192079199155725e-001
  -1.24830993572143805759e-001
  -1.30714675690987824908e-001
  -1.36875732938854743903e-001
  -1.43327250306120840273e-001
  -1.50082931342195802227e-001
  -1.57157127586305261913e-001
  -1.64564869426663651364e-001
  -1.72321898461490152776e-001
  -1.80444701439693017120e-001
  -1.88950545863761171228e-001
