<Qucs Dataset 0.0.19>
<indep time 11>
  +0.00000000000000000000e+000
  +2.00000000000000004163e-003
  +4.00000000000000008327e-003
  +6.00000000000000012490e-003
  +8.00000000000000016653e-003
  +1.00000000000000002082e-002
  +1.20000000000000002498e-002
  +1.40000000000000002914e-002
  +1.60000000000000003331e-002
  +1.80000000000000021094e-002
  +2.00000000000000004163e-002
</indep>
<dep Pr1.Vt time>
  +0.00000000000000000000e+000
  +1.08420217248550443401e-012
  +2.16840434497100886801e-012
  +3.25260651745651330202e-012
  +4.33680868994201773603e-012
  +5.42101086242752217004e-012
  +6.50521303491302660404e-012
  +7.58941520739853103805e-012
  +8.67361737988403547206e-012
  +1.84314369322535753781e-011
  +1.08420217248550443401e-011
</dep>
<dep Pr2.Vt time>
  +0.00000000000000000000e+000
  -3.56083161940011683200e+000
  -3.61635042105797621659e+000
  -3.64250067430234469867e+000
  -3.65978452564571732353e+000
  -3.67271609056000292171e+000
  -3.68305206630355508324e+000
  -3.69166193018478772103e+000
  -3.69904076159887917896e+000
  -3.70549686576129255755e+000
  -3.71123555800048254838e+000
</dep>
<dep V1.It time>
  +0.00000000000000000000e+000
  +6.79172961662285849804e-004
  +2.04712524534252412317e-005
  +7.08847970009038124382e-004
  +1.94602391514715061804e-004
  +4.34079416981819979100e-004
  +3.05358943024903214773e-004
  +4.69662434731660314961e-004
  +5.08164624465773655422e-004
  +3.17974626076746762823e-004
  +6.18337075759938631890e-004
</dep>
<dep _net0.Vt time>
  +0.00000000000000000000e+000
  +1.08420217248550443401e-012
  +2.16840434497100886801e-012
  +3.25260651745651330202e-012
  +4.33680868994201773603e-012
  +5.42101086242752217004e-012
  +6.50521303491302660404e-012
  +7.58941520739853103805e-012
  +8.67361737988403547206e-012
  +1.84314369322535753781e-011
  +1.08420217248550443401e-011
</dep>
<dep _net2.Vt time>
  +0.00000000000000000000e+000
  -4.26733320919627789891e+000
  -4.30021327997588720393e+000
  -4.31432699363878224830e+000
  -4.32341367369140794352e+000
  -4.33012569489909715514e+000
  -4.33545019292482614048e+000
  -4.33986442401885685882e+000
  -4.34363317143834404277e+000
  -4.34692196587987744749e+000
  -4.34983936421759675994e+000
</dep>
<dep _net1.Vt time>
  +0.00000000000000000000e+000
  -3.56083161940011683200e+000
  -3.61635042105797621659e+000
  -3.64250067430234469867e+000
  -3.65978452564571732353e+000
  -3.67271609056000292171e+000
  -3.68305206630355508324e+000
  -3.69166193018478772103e+000
  -3.69904076159887917896e+000
  -3.70549686576129255755e+000
  -3.71123555800048254838e+000
</dep>
