<Qucs Dataset 0.0.19>
<indep time 11>
  +0.00000000000000000000e+000
  +2.00000000000000004163e-003
  +4.00000000000000008327e-003
  +6.00000000000000012490e-003
  +8.00000000000000016653e-003
  +1.00000000000000002082e-002
  +1.20000000000000002498e-002
  +1.40000000000000002914e-002
  +1.60000000000000003331e-002
  +1.80000000000000021094e-002
  +2.00000000000000004163e-002
</indep>
<dep Pr1.Vt time>
  +0.00000000000000000000e+000
  +1.08420217248550443401e-009
  +2.16840434497100886801e-009
  +3.25260651745651330202e-009
  +4.33680868994201773603e-009
  +5.42101086242752217004e-009
  +6.50521303491302660404e-009
  +7.58941520739853103805e-009
  +8.67361737988403547206e-009
  +1.84314369322535753781e-008
  +1.08420217248550443401e-008
</dep>
<dep Pr2.Vt time>
  +0.00000000000000000000e+000
  -3.56106830865478496406e+000
  -3.61536143545101351648e+000
  -3.64282083706734161055e+000
  -3.66012588073254097054e+000
  -3.67304361572077331388e+000
  -3.68336756324403546969e+000
  -3.69196867304226650219e+000
  -3.69934077830098173578e+000
  -3.70579170966642523766e+000
  -3.71152632944405080906e+000
</dep>
<dep V1.It time>
  +0.00000000000000000000e+000
  +9.81744399799132924991e-004
  +2.32337276995070592892e-004
  +6.69056718383433373515e-004
  +1.79755816305913797293e-005
  -5.49670273323802651387e-004
  -5.61703832902902232271e-004
  +3.14962602222783913213e-004
  -3.34370689063331579579e-004
  +9.45867067307175595891e-005
  +3.70081570167242923826e-004
</dep>
<dep _net1.Vt time>
  +0.00000000000000000000e+000
  -3.56106830865478496406e+000
  -3.61536143545101351648e+000
  -3.64282083706734161055e+000
  -3.66012588073254097054e+000
  -3.67304361572077331388e+000
  -3.68336756324403546969e+000
  -3.69196867304226650219e+000
  -3.69934077830098173578e+000
  -3.70579170966642523766e+000
  -3.71152632944405080906e+000
</dep>
<dep _net0.Vt time>
  +0.00000000000000000000e+000
  +1.08420217248550443401e-009
  +2.16840434497100886801e-009
  +3.25260651745651330202e-009
  +4.33680868994201773603e-009
  +5.42101086242752217004e-009
  +6.50521303491302660404e-009
  +7.58941520739853103805e-009
  +8.67361737988403547206e-009
  +1.84314369322535753781e-008
  +1.08420217248550443401e-008
</dep>
<dep _net2.Vt time>
  +0.00000000000000000000e+000
  -4.26755836255573761662e+000
  -4.30370449028844248573e+000
  -4.31479652087591425413e+000
  -4.32373928621786873805e+000
  -4.33042551097806338589e+000
  -4.33574011153055582923e+000
  -4.34014785529000057807e+000
  -4.34391297754262684094e+000
  -4.34719900477913778758e+000
  -4.35011417299158953398e+000
</dep>
