<Qucs Dataset 0.0.19>
<indep time 11>
  +0.00000000000000000000e+000
  +2.00000000000000009584e-004
  +4.00000000000000019169e-004
  +6.00000000000000055858e-004
  +8.00000000000000038337e-004
  +1.00000000000000002082e-003
  +1.20000000000000011172e-003
  +1.39999999999999998578e-003
  +1.60000000000000007667e-003
  +1.79999999999999995073e-003
  +2.00000000000000004163e-003
</indep>
<dep Pr1.Vt time>
  +0.00000000000000000000e+000
  -4.68919993158230407189e-016
  -7.97444644926316199402e-016
  -1.20972577984350025890e-015
  -1.61627975796551939327e-015
  -2.03403665637760833410e-015
  -2.40880720347116419432e-015
  -2.82884067732969115092e-015
  -3.22937238892747439434e-015
  -3.63045305004141667525e-015
  -3.99474719117310814149e-015
</dep>
<dep Pr2.Vt time>
  +0.00000000000000000000e+000
  +4.31951223634564507314e-001
  +1.05605281755646207564e+000
  +1.36258872702894118234e+000
  +1.51333340657878157032e+000
  +1.58881630359423708931e+000
  +1.63018200694799353379e+000
  +1.65545321550802926325e+000
  +1.67214053628687531194e+000
  +1.68373376595307222559e+000
  +1.69200749695633834158e+000
</dep>
<dep V1.It time>
  +0.00000000000000000000e+000
  -1.58437246486527160414e-005
  -1.44256535147137780880e-006
  -4.20226945848528925730e-006
  +1.89949551089581480316e-005
  -1.89238621107342735647e-005
  -1.81011403486990948733e-005
  -1.77008000230072054754e-005
  -1.72196413770960856347e-005
  -1.76497601485034076108e-005
  -1.69685971746325055091e-005
</dep>
<dep _net2.Vt time>
  +0.00000000000000000000e+000
  +8.38240649316352337550e-001
  +8.38251128037146076011e-001
  +8.38516418416199726948e-001
  +8.40971331542338607079e-001
  +8.47014540286780692746e-001
  +8.54043065519820787657e-001
  +8.60132383966289770783e-001
  +8.64964154791800332589e-001
  +8.68705956884530006157e-001
  +8.71614559411341027761e-001
</dep>
<dep _net1.Vt time>
  +0.00000000000000000000e+000
  +4.31951223634564507314e-001
  +1.05605281755646207564e+000
  +1.36258872702894118234e+000
  +1.51333340657878157032e+000
  +1.58881630359423708931e+000
  +1.63018200694799353379e+000
  +1.65545321550802926325e+000
  +1.67214053628687531194e+000
  +1.68373376595307222559e+000
  +1.69200749695633834158e+000
</dep>
<dep _net0.Vt time>
  +0.00000000000000000000e+000
  -4.68919993158230407189e-016
  -7.97444644926316199402e-016
  -1.20972577984350025890e-015
  -1.61627975796551939327e-015
  -2.03403665637760833410e-015
  -2.40880720347116419432e-015
  -2.82884067732969115092e-015
  -3.22937238892747439434e-015
  -3.63045305004141667525e-015
  -3.99474719117310814149e-015
</dep>
