<Qucs Dataset 0.0.19>
<indep acfrequency 251>
  +1.00000000000000000000e+001
  +1.04712854805089961019e+001
  +1.09647819614318500214e+001
  +1.14815362149688287019e+001
  +1.20226443461741290264e+001
  +1.25892541179416728170e+001
  +1.31825673855640701504e+001
  +1.38038426460288476960e+001
  +1.44543977074592753240e+001
  +1.51356124843620793996e+001
  +1.58489319246111328710e+001
  +1.65958690743756065444e+001
  +1.73780082874937527038e+001
  +1.81970085860998338489e+001
  +1.90546071796324731906e+001
  +1.99526231496887938022e+001
  +2.08929613085403929063e+001
  +2.18776162394955235868e+001
  +2.29086765276777271083e+001
  +2.39883291901949036173e+001
  +2.51188643150958021977e+001
  +2.63026799189538174062e+001
  +2.75422870333816618427e+001
  +2.88403150312660550014e+001
  +3.01995172040201573793e+001
  +3.16227766016837890106e+001
  +3.31131121482591055383e+001
  +3.46736850452531655264e+001
  +3.63078054770101346094e+001
  +3.80189396320561101561e+001
  +3.98107170553497198284e+001
  +4.16869383470335392872e+001
  +4.36515832240165906342e+001
  +4.57088189614874949029e+001
  +4.78630092322638347468e+001
  +5.01187233627272306080e+001
  +5.24807460249772432803e+001
  +5.49540873857624490029e+001
  +5.75439937337156877106e+001
  +6.02559586074357724783e+001
  +6.30957344480193142999e+001
  +6.60693448007595947047e+001
  +6.91830970918936287717e+001
  +7.24435960074989964141e+001
  +7.58577575029183748256e+001
  +7.94328234724281401213e+001
  +8.31763771102670688151e+001
  +8.70963589956080568300e+001
  +9.12010839355909439519e+001
  +9.54992586021435840848e+001
  +9.99999999999999857891e+001
  +1.04712854805089961019e+002
  +1.09647819614318478898e+002
  +1.14815362149688240834e+002
  +1.20226443461741268948e+002
  +1.25892541179416696195e+002
  +1.31825673855640701504e+002
  +1.38038426460288462749e+002
  +1.44543977074592675081e+002
  +1.51356124843620790443e+002
  +1.58489319246111278972e+002
  +1.65958690743756022812e+002
  +1.73780082874937477300e+002
  +1.81970085860998324279e+002
  +1.90546071796324667957e+002
  +1.99526231496887874073e+002
  +2.08929613085403929063e+002
  +2.18776162394955179025e+002
  +2.29086765276777271083e+002
  +2.39883291901948950908e+002
  +2.51188643150958000660e+002
  +2.63026799189538110113e+002
  +2.75422870333816490529e+002
  +2.88403150312660557120e+002
  +3.01995172040201509844e+002
  +3.16227766016837904317e+002
  +3.31131121482590970118e+002
  +3.46736850452531427891e+002
  +3.63078054770101289250e+002
  +3.80189396320561058928e+002
  +3.98107170553497212495e+002
  +4.16869383470335264974e+002
  +4.36515832240165877920e+002
  +4.57088189614874863764e+002
  +4.78630092322638120095e+002
  +5.01187233627272178182e+002
  +5.24807460249772361749e+002
  +5.49540873857624205812e+002
  +5.75439937337156948161e+002
  +6.02559586074357639518e+002
  +6.30957344480193114578e+002
  +6.60693448007595634408e+002
  +6.91830970918936031921e+002
  +7.24435960074990134672e+002
  +7.58577575029183662991e+002
  +7.94328234724281287527e+002
  +8.31763771102670489199e+002
  +8.70963589956079999865e+002
  +9.12010839355909752157e+002
  +9.54992586021435727162e+002
  +9.99999999999999545253e+002
  +1.04712854805089887122e+003
  +1.09647819614318495951e+003
  +1.14815362149688257887e+003
  +1.20226443461741246210e+003
  +1.25892541179416662089e+003
  +1.31825673855640616239e+003
  +1.38038426460288496855e+003
  +1.44543977074592726240e+003
  +1.51356124843620773390e+003
  +1.58489319246111244865e+003
  +1.65958690743755937547e+003
  +1.73780082874937534143e+003
  +1.81970085860998301541e+003
  +1.90546071796324645220e+003
  +1.99526231496887817229e+003
  +2.08929613085403752848e+003
  +2.18776162394955235868e+003
  +2.29086765276777214240e+003
  +2.39883291901948905434e+003
  +2.51188643150957841499e+003
  +2.63026799189538178325e+003
  +2.75422870333816626953e+003
  +2.88403150312660500276e+003
  +3.01995172040201441632e+003
  +3.16227766016837676943e+003
  +3.31131121482591061067e+003
  +3.46736850452531552946e+003
  +3.63078054770101152826e+003
  +3.80189396320560945242e+003
  +3.98107170553496916909e+003
  +4.16869383470335287711e+003
  +4.36515832240165855183e+003
  +4.57088189614874772815e+003
  +4.78630092322638029145e+003
  +5.01187233627271871228e+003
  +5.24807460249772520910e+003
  +5.49540873857624319498e+003
  +5.75439937337156607100e+003
  +6.02559586074357321195e+003
  +6.30957344480193205527e+003
  +6.60693448007595907256e+003
  +6.91830970918936145608e+003
  +7.24435960074989543500e+003
  +7.58577575029183117294e+003
  +7.94328234724281355739e+003
  +8.31763771102670762048e+003
  +8.70963589956080068077e+003
  +9.12010839355909047299e+003
  +9.54992586021435090515e+003
  +9.99999999999999818101e+003
  +1.04712854805089918955e+004
  +1.09647819614318432286e+004
  +1.14815362149688189675e+004
  +1.20226443461741182546e+004
  +1.25892541179416693922e+004
  +1.31825673855640634429e+004
  +1.38038426460288392263e+004
  +1.44543977074592639838e+004
  +1.51356124843620800675e+004
  +1.58489319246111299435e+004
  +1.65958690743755942094e+004
  +1.73780082874937434099e+004
  +1.81970085860998151475e+004
  +1.90546071796324686147e+004
  +1.99526231496887849062e+004
  +2.08929613085403798323e+004
  +2.18776162394955099444e+004
  +2.29086765276777077815e+004
  +2.39883291901948941813e+004
  +2.51188643150957868784e+004
  +2.63026799189537996426e+004
  +2.75422870333816390485e+004
  +2.88403150312660291092e+004
  +3.01995172040201214259e+004
  +3.16227766016837449570e+004
  +3.31131121482591115637e+004
  +3.46736850452531580231e+004
  +3.63078054770101225586e+004
  +3.80189396320561063476e+004
  +3.98107170553496980574e+004
  +4.16869383470335014863e+004
  +4.36515832240165473195e+004
  +4.57088189614874499966e+004
  +4.78630092322637647158e+004
  +5.01187233627272435115e+004
  +5.24807460249772630050e+004
  +5.49540873857624392258e+004
  +5.75439937337156734429e+004
  +6.02559586074357430334e+004
  +6.30957344480192768970e+004
  +6.60693448007595434319e+004
  +6.91830970918935636291e+004
  +7.24435960074989125133e+004
  +7.58577575029182626167e+004
  +7.94328234724281501258e+004
  +8.31763771102670871187e+004
  +8.70963589956080395496e+004
  +9.12010839355909265578e+004
  +9.54992586021435272414e+004
  +9.99999999999999126885e+004
  +1.04712854805089853471e+005
  +1.09647819614318359527e+005
  +1.14815362149688095087e+005
  +1.20226443461741306237e+005
  +1.25892541179416715750e+005
  +1.31825673855640663533e+005
  +1.38038426460288406815e+005
  +1.44543977074592665303e+005
  +1.51356124843620695174e+005
  +1.58489319246111204848e+005
  +1.65958690743755869335e+005
  +1.73780082874937274028e+005
  +1.81970085860998049611e+005
  +1.90546071796324715251e+005
  +1.99526231496887921821e+005
  +2.08929613085403863806e+005
  +2.18776162394955143100e+005
  +2.29086765276777121471e+005
  +2.39883291901948803570e+005
  +2.51188643150957708713e+005
  +2.63026799189537821803e+005
  +2.75422870333816215862e+005
  +2.88403150312660611235e+005
  +3.01995172040201607160e+005
  +3.16227766016837791540e+005
  +3.31131121482590911910e+005
  +3.46736850452531361952e+005
  +3.63078054770100978203e+005
  +3.80189396320560772438e+005
  +3.98107170553496747743e+005
  +4.16869383470334811136e+005
  +4.36515832240165269468e+005
  +4.57088189614875009283e+005
  +4.78630092322638258338e+005
  +5.01187233627272071317e+005
  +5.24807460249772295356e+005
  +5.49540873857624130324e+005
  +5.75439937337156268768e+005
  +6.02559586074357037432e+005
  +6.30957344480192288756e+005
  +6.60693448007595026866e+005
  +6.91830970918936538510e+005
  +7.24435960074989823624e+005
  +7.58577575029183528386e+005
  +7.94328234724281122908e+005
  +8.31763771102670347318e+005
  +8.70963589956079842523e+005
  +9.12010839355908683501e+005
  +9.54992586021434748545e+005
  +9.99999999999998370185e+005
</indep>
<dep argH acfrequency>
  +8.99809200007080249861e+001
  +8.99800207881070122085e+001
  +8.99790791969397787398e+001
  +8.99780932299746609715e+001
  +8.99770607958204351462e+001
  +8.99759797045461766629e+001
  +8.99748476630419276034e+001
  +8.99736622700920776197e+001
  +8.99724210113076168227e+001
  +8.99711212538231563940e+001
  +8.99697602406904906047e+001
  +8.99683350850331322590e+001
  +8.99668427638894740994e+001
  +8.99652801118694469551e+001
  +8.99636438143804042511e+001
  +8.99619304006312745514e+001
  +8.99601362362538452544e+001
  +8.99582575156035630926e+001
  +8.99562902536658270947e+001
  +8.99542302776373219331e+001
  +8.99520732180668005640e+001
  +8.99498144995494186560e+001
  +8.99474493310779479316e+001
  +8.99449726958385440412e+001
  +8.99423793406026987896e+001
  +8.99396637645494223534e+001
  +8.99368202076302623027e+001
  +8.99338426383348945592e+001
  +8.99307247409068963862e+001
  +8.99274599019418872103e+001
  +8.99240411963600934087e+001
  +8.99204613727295907211e+001
  +8.99167128378702500413e+001
  +8.99127876407767701039e+001
  +8.99086774557180490319e+001
  +8.99043735646156108032e+001
  +8.98998668385291637151e+001
  +8.98951477183161102857e+001
  +8.98902061943477690420e+001
  +8.98850317852781728334e+001
  +8.98796135158336397808e+001
  +8.98739398935280462410e+001
  +8.98679988842905146385e+001
  +8.98617778869605388081e+001
  +8.98552637065529182792e+001
  +8.98484425262966226455e+001
  +8.98412998783257279456e+001
  +8.98338206130162149066e+001
  +8.98259888668663677436e+001
  +8.98177880288668148978e+001
  +8.98092007052875089812e+001
  +8.98002086828094121529e+001
  +8.97907928899233240827e+001
  +8.97809333565109710662e+001
  +8.97706091715198795100e+001
  +8.97597984386557214975e+001
  +8.97484782299940064831e+001
  +8.97366245373963380416e+001
  +8.97242122216587318917e+001
  +8.97112149592662859732e+001
  +8.96976051866467969376e+001
  +8.96833540418058277055e+001
  +8.96684313032224622475e+001
  +8.96528053258849126905e+001
  +8.96364429743195501032e+001
  +8.96193095524842249233e+001
  +8.96013687303805568263e+001
  +8.95825824672225792256e+001
  +8.95629109310234525765e+001
  +8.95423124144102331456e+001
  +8.95207432465143568834e+001
  +8.94981577007494593090e+001
  +8.94745078982853101479e+001
  +8.94497437070297110040e+001
  +8.94238126359068985494e+001
  +8.93966597242285700986e+001
  +8.93682274259264346483e+001
  +8.93384554884239179273e+001
  +8.93072808259069716996e+001
  +8.92746373867388598455e+001
  +8.92404560147711691798e+001
  +8.92046643042770313059e+001
  +8.91671864482331670843e+001
  +8.91279430796594311914e+001
  +8.90868511057274474751e+001
  +8.90438235343295900748e+001
  +8.89987692927897739992e+001
  +8.89515930384038853163e+001
  +8.89021949604657066857e+001
  +8.88504705734517301607e+001
  +8.87963105010096569458e+001
  +8.87396002504063119432e+001
  +8.86802199770730794626e+001
  +8.86180442388958624633e+001
  +8.85529417398850711152e+001
  +8.84847750628693745512e+001
  +8.84134003908570207386e+001
  +8.83386672167187754212e+001
  +8.82604180408525564872e+001
  +8.81784880565127338059e+001
  +8.80927048224975806079e+001
  +8.80028879229252112282e+001
  +8.79088486138566054251e+001
  +8.78103894565653746440e+001
  +8.77073039373104847982e+001
  +8.75993760735281057350e+001
  +8.74863800064342171936e+001
  +8.73680795801226395270e+001
  +8.72442279073494404429e+001
  +8.71145669223226235545e+001
  +8.69788269209669522297e+001
  +8.68367260893083141582e+001
  +8.66879700208289136754e+001
  +8.65322512238827101783e+001
  +8.63692486205378457953e+001
  +8.61986270385337576272e+001
  +8.60200366984091573386e+001
  +8.58331126982838839012e+001
  +8.56374744992622254358e+001
  +8.54327254149859669496e+001
  +8.52184521094980453881e+001
  +8.49942241083031007065e+001
  +8.47595933283307800821e+001
  +8.45140936334347543379e+001
  +8.42572404231070493097e+001
  +8.39885302632621204566e+001
  +8.37074405692591483330e+001
  +8.34134293527978059046e+001
  +8.31059350459491525953e+001
  +8.27843764173799172568e+001
  +8.24481525978001030808e+001
  +8.20966432338163798477e+001
  +8.17292087917024758781e+001
  +8.13451910351008962152e+001
  +8.09439137033261886245e+001
  +8.05246834197316587733e+001
  +8.00867908624840794118e+001
  +7.96295122330182465475e+001
  +7.91521110603361677249e+001
  +7.86538403820853204707e+001
  +7.81339453458695203381e+001
  +7.75916662763621616250e+001
  +7.70262422553168875083e+001
  +7.64369152622729188806e+001
  +7.58229349233624105864e+001
  +7.51835639138297295858e+001
  +7.45180840563103714658e+001
  +7.38258031511944494696e+001
  +7.31060625670941988119e+001
  +7.23582456081068841058e+001
  +7.15817866597865446465e+001
  +7.07761810971183678021e+001
  +6.99409959150187319210e+001
  +6.90758810147801654011e+001
  +6.81805810484495395940e+001
  +6.72549476876346403742e+001
  +6.62989521442633815695e+001
  +6.53126977293529762392e+001
  +6.42964321933117872732e+001
  +6.32505595496058603544e+001
  +6.21756510451765365133e+001
  +6.10724549086256871533e+001
  +5.99419044840658017392e+001
  +5.87851243479845777529e+001
  +5.76034340117405960768e+001
  +5.63983488362389948634e+001
  +5.51715778300316017635e+001
  +5.39250180685518074597e+001
  +5.26607455599845550864e+001
  +5.13810024902709443495e+001
  +5.00881809020341677297e+001
  +4.87848029941455436642e+001
  +4.74734983631315117236e+001
  +4.61569786365840641906e+001
  +4.48380100637950036457e+001
  +4.35193847220470431125e+001
  +4.22038910616448958990e+001
  +4.08942845440639572985e+001
  +3.95932591231698154388e+001
  +3.83034202796605356411e+001
  +3.70272602466879448002e+001
  +3.57671359653568217141e+001
  +3.45252501895617882610e+001
  +3.33036360285275065962e+001
  +3.21041450808422013097e+001
  +3.09284391836028582645e+001
  +2.97779856812982615111e+001
  +2.86540560164800837128e+001
  +2.75577273615910556259e+001
  +2.64898869502188141212e+001
  +2.54512387265879347353e+001
  +2.44423119129848949171e+001
  +2.34634710937111101714e+001
  +2.25149274281024176503e+001
  +2.15967506308505932111e+001
  +2.07088813920067487118e+001
  +1.98511439485370431157e+001
  +1.90232585614016755926e+001
  +1.82248536945602737092e+001
  +1.74554777332738559892e+001
  +1.67146101172656358358e+001
  +1.60016717988391654615e+001
  +1.53160349664336550290e+001
  +1.46570320001285718803e+001
  +1.40239636473383022519e+001
  +1.34161064245811925133e+001
  +1.28327192650995254297e+001
  +1.22730494426528391472e+001
  +1.17363378094373480565e+001
  +1.12218233912383169582e+001
  +1.07287473860156712391e+001
  +1.02563566135436978755e+001
  +9.80390646381959207645e+000
  +9.37066339102776346692e+000
  +8.95590699815718416232e+000
  +8.55893175513749326910e+000
  +8.17904839076555845168e+000
  +7.81558499588519683954e+000
  +7.46788787237206541647e+000
  +7.13532215955462767454e+000
  +6.81727226683681397645e+000
  +6.51314213852743151278e+000
  +6.22235537426020801632e+000
  +5.94435522592792686680e+000
  +5.67860448976770282314e+000
  +5.42458531012663325299e+000
  +5.18179890950887678258e+000
  +4.94976525775082087932e+000
  +4.72802269158483667866e+000
  +4.51612749442420380319e+000
  +4.31365344492224078721e+000
  +4.12019134171654410892e+000
  +3.93534851075351843619e+000
  +3.75874830068803023053e+000
  +3.59002957105753628397e+000
  +3.42884617722900841841e+000
  +3.27486645550155008877e+000
  +3.12777271120789324144e+000
  +2.98726071218680733210e+000
  +2.85303918958768942815e+000
  +2.72482934761165163096e+000
  +2.60236438348405707544e+000
  +2.48538901868613359980e+000
  +2.37365904224291313085e+000
  +2.26694086666687955045e+000
  +2.16501109698751648125e+000
  +2.06765611315243003077e+000
  +1.97467166596330923056e+000
  +1.88586248660640865005e+000
  +1.80104190975027189658e+000
  +1.72003151011083654787e+000
</dep>
<dep H acfrequency>
  +9.99999889105137262924e-001-j3.33008784351550540370e-004
  +9.99999878406202191705e-001-j3.48703001115483043545e-004
  +9.99999866675053472598e-001-j3.65136862975571545396e-004
  +9.99999853812105099493e-001-j3.82345228249382908074e-004
  +9.99999839708162974183e-001-j4.00364598064246025953e-004
  +9.99999824243498314225e-001-j4.19233193778694075444e-004
  +9.99999807286831354780e-001-j4.38991038052398971966e-004
  +9.99999788694216462659e-001-j4.59680039736509997873e-004
  +9.99999768307820335878e-001-j4.81344082764398068647e-004
  +9.99999745954582408558e-001-j5.04029119231290444539e-004
  +9.99999721444745581778e-001-j5.27783266860149522827e-004
  +9.99999694570245400982e-001-j5.52656911060446054233e-004
  +9.99999665102943469108e-001-j5.78702811796203775777e-004
  +9.99999632792691439676e-001-j6.05976215489880429103e-004
  +9.99999597365206938093e-001-j6.34534972199310605412e-004
  +9.99999558519745535001e-001-j6.64439658316105363073e-004
  +9.99999515926547566380e-001-j6.95753705045589637170e-004
  +9.99999469224038928239e-001-j7.28543532940593464853e-004
  +9.99999418015761420975e-001-j7.62878692774229729551e-004
  +9.99999361867007663385e-001-j7.98832013050196853253e-004
  +9.99999300301130822355e-001-j8.36479754463184416863e-004
  +9.99999232795497849935e-001-j8.75901771636658217461e-004
  +9.99999158777053698266e-001-j9.17181682480686208576e-004
  +9.99999077617456100242e-001-j9.60407045528560775020e-004
  +9.99998988627742169122e-001-j1.00566954562784026915e-003
  +9.99998891052479299546e-001-j1.05306518837906186274e-003
  +9.99998784063352963436e-001-j1.10269450373384888739e-003
  +9.99998666752135001445e-001-j1.15466275918345751168e-003
  +9.99998538122974012232e-001-j1.20908018298902255293e-003
  +9.99998397083941670260e-001-j1.26606219792593723168e-003
  +9.99998242437763584789e-001-j1.32572966603693100270e-003
  +9.99998072871656207283e-001-j1.38820914491158083938e-003
  +9.99997886946182634738e-001-j1.45363315603424061474e-003
  +9.99997683083034383245e-001-j1.52214046576771449594e-003
  +9.99997459551632772445e-001-j1.59387637956654088824e-003
  +9.99997214454439675713e-001-j1.66899305004148497053e-003
  +9.99996945710849516331e-001-j1.74764979952586607670e-003
  +9.99996651039528616778e-001-j1.83001345782467716647e-003
  +9.99996327939049911571e-001-j1.91625871585917825247e-003
  +9.99995973666659709878e-001-j2.00656849595282332083e-003
  +9.99995585214996873802e-001-j2.10113433953902596293e-003
  +9.99995159286565238332e-001-j2.20015681310750882763e-003
  +9.99994692265743778670e-001-j2.30384593324382824786e-003
  +9.99994180188097381290e-001-j2.41242161165620971897e-003
  +9.99993618706726095091e-001-j2.52611412112510634945e-003
  +9.99993003055369755749e-001-j2.64516458335404798866e-003
  +9.99992328007952346880e-001-j2.76982547974530431134e-003
  +9.99991587834225259535e-001-j2.90036118617087966542e-003
  +9.99990776251131530117e-001-j3.03704853285831832474e-003
  +9.99989886369479052952e-001-j3.18017739056191284935e-003
  +9.99988910635470351629e-001-j3.33005128424307276017e-003
  +9.99987840766593083508e-001-j3.48698803553914617182e-003
  +9.99986667681327601187e-001-j3.65132043535765444045e-003
  +9.99985381422075270130e-001-j3.82339694799304534792e-003
  +9.99983971070653732127e-001-j4.00358244822549350084e-003
  +9.99982424655643464817e-001-j4.19225899292625069081e-003
  +9.99980729050799932445e-001-j4.38982662876145294378e-003
  +9.99978869863668906603e-001-j4.59670423765620641404e-003
  +9.99976831313463043749e-001-j4.81333042175329482715e-003
  +9.99974596097163548336e-001-j5.04016442967586408841e-003
  +9.99972145242712717739e-001-j5.27768712598098658356e-003
  +9.99969457948053697116e-001-j5.52640200577120786762e-003
