<Qucs Dataset 0.0.19>
<indep time 11>
  +0.00000000000000000000e+000
  +1.00000000000000004792e-004
  +2.00000000000000009584e-004
  +3.00000000000000027929e-004
  +4.00000000000000019169e-004
  +5.00000000000000010408e-004
  +6.00000000000000055858e-004
  +6.99999999999999992888e-004
  +8.00000000000000038337e-004
  +8.99999999999999975367e-004
  +1.00000000000000002082e-003
</indep>
<dep Pr2.Vt time>
  +0.00000000000000000000e+000
  +8.34295205149879648410e-001
  +8.25993533799706081133e-001
  +8.65324674005260030540e-001
  +8.56714251116599267988e-001
  +8.80087215569741898591e-001
  +8.71329901432522979654e-001
  +8.88572754819699883733e-001
  +8.79731007290712407887e-001
  +8.93863028664868219941e-001
  +8.84968641492005936300e-001
</dep>
<dep Pr3.Vt time>
  +0.00000000000000000000e+000
  +2.02060048380692242675e-016
  -4.04120096761384485349e-016
  +6.06180145142076703372e-016
  -8.08240193522768970698e-016
  +1.01030024190346123802e-015
  -1.21236029028415340674e-015
  +1.41442033866484557546e-015
  -1.61648038704553794140e-015
  +1.81854043542623030733e-015
  -2.02060048380692247605e-015
</dep>
<dep V1.It time>
  +0.00000000000000000000e+000
  -2.04074000076634728366e-007
  +2.41735082692143913610e-007
  -2.03436139555104892205e-007
  +2.41731157139379691242e-007
  -2.03052930480627427908e-007
  +2.41649570234474361970e-007
  -2.02684486828848214991e-007
  +2.41454507620294587531e-007
  -2.02311634072190753101e-007
  +2.41189752300495318974e-007
</dep>
<dep _net1.Vt time>
  +0.00000000000000000000e+000
  +2.02060048380692242675e-016
  -4.04120096761384485349e-016
  +6.06180145142076703372e-016
  -8.08240193522768970698e-016
  +1.01030024190346123802e-015
  -1.21236029028415340674e-015
  +1.41442033866484557546e-015
  -1.61648038704553794140e-015
  +1.81854043542623030733e-015
  -2.02060048380692247605e-015
</dep>
<dep _net0.Vt time>
  +0.00000000000000000000e+000
  +8.34295205149879648410e-001
  +8.25993533799706081133e-001
  +8.65324674005260030540e-001
  +8.56714251116599267988e-001
  +8.80087215569741898591e-001
  +8.71329901432522979654e-001
  +8.88572754819699883733e-001
  +8.79731007290712407887e-001
  +8.93863028664868219941e-001
  +8.84968641492005936300e-001
</dep>
